!Keysight Technologies N9918A: A.08.19
!Date: Monday, 02 October 2023 11:21:08
!Timezone: (GMT-08:00) Pacific Time (US & Canada)
!Model: N9918A
!Serial: MY53102120
!GPS Latitude: 
!GPS Longitude: 
!GPS TimeStamp: 0001-01-01 00:00:00Z
!GPS Seconds Since Last Read: 0
!CHECKSUM:0860187680
!Correction: S11()S21(Rdy)S12()S22()
!S2P File: Measurements:S11,S21,S12,S22:
# Hz S DB R 50
30000	0	0	-69.6260369269242	43.9586567772233	0	0	0	0	
3630714.14282857	0	0	-83.948074511777	-70.1248233812937	0	0	0	0	
7231428.28565713	0	0	-94.7726360885181	-48.3043595598927	0	0	0	0	
10832142.4284857	0	0	-78.9651505888716	-10.7669492045613	0	0	0	0	
14432856.5713143	0	0	-94.6237106204457	-32.3421034771214	0	0	0	0	
18033570.7141428	0	0	-83.2686607135468	131.407595600789	0	0	0	0	
21634284.8569714	0	0	-79.920105523516	-55.8650778740712	0	0	0	0	
25234998.9998	0	0	-75.7804646099664	106.452493701366	0	0	0	0	
28835713.1426285	0	0	-78.4001194903656	-139.85827130392	0	0	0	0	
32436427.2854571	0	0	-76.9743808113854	-170.344235458709	0	0	0	0	
36037141.4282857	0	0	-88.2496429907284	155.072502707061	0	0	0	0	
39637855.5711142	0	0	-88.5777634494227	-98.9334466816331	0	0	0	0	
43238569.7139428	0	0	-88.8745695279559	69.9627573165338	0	0	0	0	
46839283.8567714	0	0	-77.4401829525594	-121.294725515299	0	0	0	0	
50439997.9995999	0	0	-80.7051508942838	-88.3336632949611	0	0	0	0	
54040712.1424285	0	0	-80.4545880257299	-173.374085475376	0	0	0	0	
57641426.2852571	0	0	-88.4417002953368	-141.146329307814	0	0	0	0	
61242140.4280856	0	0	-77.1589202364554	146.03551622997	0	0	0	0	
64842854.5709142	0	0	-76.9907143249729	106.542068437462	0	0	0	0	
68443568.7137428	0	0	-76.6698810004096	65.4542630333714	0	0	0	0	
72044282.8565713	0	0	-75.740553581412	28.8514925585237	0	0	0	0	
75644996.9993999	0	0	-73.7080200411293	-17.6817089250839	0	0	0	0	
79245711.1422285	0	0	-76.6177462091195	-11.8652737493294	0	0	0	0	
82846425.2850571	0	0	-82.1441944195217	-97.5000548911449	0	0	0	0	
86447139.4278856	0	0	-87.5524820933327	-20.1078154227559	0	0	0	0	
90047853.5707142	0	0	-80.7027509243192	-124.050314274843	0	0	0	0	
93648567.7135428	0	0	-78.3526699834105	-171.576784707139	0	0	0	0	
97249281.8563713	0	0	-73.0837278801699	147.123955890614	0	0	0	0	
100849995.9992	0	0	-76.2304059241907	-177.200109105512	0	0	0	0	
104450710.142028	0	0	-73.5711826788886	149.126413597081	0	0	0	0	
108051424.284857	0	0	-75.0569496250592	97.5466554071372	0	0	0	0	
111652138.427686	0	0	-72.7106790280982	61.6339013726332	0	0	0	0	
115252852.570514	0	0	-72.2958103108632	34.7244063375262	0	0	0	0	
118853566.713343	0	0	-67.7222022670464	-2.28658779550214	0	0	0	0	
122454280.856171	0	0	-71.8727393451435	-34.9586414101178	0	0	0	0	
126054994.999	0	0	-67.9250248562406	-66.2025631486931	0	0	0	0	
129655709.141828	0	0	-69.5314805108401	-91.5464294041331	0	0	0	0	
133256423.284657	0	0	-69.8552406391651	-138.18281576015	0	0	0	0	
136857137.427486	0	0	-69.5616055065693	174.5777665305	0	0	0	0	
140457851.570314	0	0	-69.6728841397039	161.950301591458	0	0	0	0	
144058565.713143	0	0	-72.6033436756179	131.28641299096	0	0	0	0	
147659279.855971	0	0	-70.3726873165789	113.659963709379	0	0	0	0	
151259993.9988	0	0	-75.2981167280718	49.0479296618799	0	0	0	0	
154860708.141628	0	0	-77.7272375156987	-14.7352235334263	0	0	0	0	
158461422.284457	0	0	-75.8102768878422	24.2695045796788	0	0	0	0	
162062136.427285	0	0	-81.636233802604	38.1513522787369	0	0	0	0	
165662850.570114	0	0	-82.7153368924432	-144.010866564677	0	0	0	0	
169263564.712943	0	0	-74.9086042209173	-50.5966537653903	0	0	0	0	
172864278.855771	0	0	-78.8382591222807	-23.8848058775003	0	0	0	0	
176464992.9986	0	0	-82.0254985973695	39.3386556474075	0	0	0	0	
180065707.141428	0	0	-77.3291402466361	-11.5652717743321	0	0	0	0	
183666421.284257	0	0	-83.0094479814645	-22.10185347352	0	0	0	0	
187267135.427085	0	0	-79.8482514988372	-80.6942888697208	0	0	0	0	
190867849.569914	0	0	-79.2460889473806	-123.467415029389	0	0	0	0	
194468563.712742	0	0	-75.2884175340483	-84.9111313710304	0	0	0	0	
198069277.855571	0	0	-77.7832315290125	176.041021461957	0	0	0	0	
201669991.9984	0	0	-82.7256176039606	-23.6860312423307	0	0	0	0	
205270706.141228	0	0	-74.0897005847125	-83.7388883671545	0	0	0	0	
208871420.284057	0	0	-77.814764285192	-156.255459319991	0	0	0	0	
212472134.426885	0	0	-71.2678829465074	-120.162230526222	0	0	0	0	
216072848.569714	0	0	-63.3970746208478	-167.721601567427	0	0	0	0	
219673562.712542	0	0	-61.4840715172934	139.249901668591	0	0	0	0	
223274276.855371	0	0	-62.4600916969424	104.043609085617	0	0	0	0	
226874990.998199	0	0	-61.2626487451935	79.3052362746301	0	0	0	0	
230475705.141028	0	0	-61.60685555438	50.0762204704547	0	0	0	0	
234076419.283857	0	0	-60.770775209828	14.7583450475458	0	0	0	0	
237677133.426685	0	0	-63.9731572773654	-15.5241963661304	0	0	0	0	
241277847.569514	0	0	-63.3946852089728	-43.6353971389598	0	0	0	0	
244878561.712342	0	0	-63.1983221628901	-58.4925273833849	0	0	0	0	
248479275.855171	0	0	-63.328053638604	-94.605333755249	0	0	0	0	
252079989.997999	0	0	-64.3599540744799	-117.270955872287	0	0	0	0	
255680704.140828	0	0	-64.385100558412	-164.436535573198	0	0	0	0	
259281418.283656	0	0	-63.8654235903758	156.064580671627	0	0	0	0	
262882132.426485	0	0	-59.4686843244738	98.9212681055312	0	0	0	0	
266482846.569314	0	0	-56.3644405240329	46.4284290037067	0	0	0	0	
270083560.712142	0	0	-53.3857006312994	-4.16832303833848	0	0	0	0	
273684274.854971	0	0	-51.7567244485899	-45.9204841245958	0	0	0	0	
277284988.997799	0	0	-50.3328741992428	-64.8506711490231	0	0	0	0	
280885703.140628	0	0	-46.8003129401129	-90.5185248674908	0	0	0	0	
284486417.283456	0	0	-42.8923642439416	-117.682633556435	0	0	0	0	
288087131.426285	0	0	-39.8925942269019	-154.583809421823	0	0	0	0	
291687845.569114	0	0	-37.0264221471873	173.294709264258	0	0	0	0	
295288559.711942	0	0	-34.5991653754564	136.659346466174	0	0	0	0	
298889273.854771	0	0	-32.2301058408304	100.864123868445	0	0	0	0	
302489987.997599	0	0	-30.5492537168514	61.5797000037112	0	0	0	0	
306090702.140428	0	0	-29.2270139977659	23.7749876500702	0	0	0	0	
309691416.283257	0	0	-28.2962385085695	-13.4920992947816	0	0	0	0	
313292130.426085	0	0	-27.6754342651057	-50.1277580795626	0	0	0	0	
316892844.568914	0	0	-27.2232543404541	-85.3010521961146	0	0	0	0	
320493558.711742	0	0	-27.1742530668354	-119.622941095145	0	0	0	0	
324094272.854571	0	0	-27.1366997481403	-152.043910911806	0	0	0	0	
327694986.997399	0	0	-27.1881558909608	177.328749074943	0	0	0	0	
331295701.140228	0	0	-27.0933708168085	146.465510939589	0	0	0	0	
334896415.283057	0	0	-27.0207178130447	117.946318474109	0	0	0	0	
338497129.425885	0	0	-26.55299107807	88.7800341577892	0	0	0	0	
342097843.568714	0	0	-26.2441234917751	50.3143844545722	0	0	0	0	
345698557.711542	0	0	-27.4667238044514	20.3586181053086	0	0	0	0	
349299271.854371	0	0	-28.0632098423464	-7.87783700215003	0	0	0	0	
352899985.9972	0	0	-28.7249183890409	-35.7124933648629	0	0	0	0	
356500700.140028	0	0	-29.43987889493	-61.1267930545363	0	0	0	0	
360101414.282857	0	0	-29.9039516570484	-86.124215424569	0	0	0	0	
363702128.425685	0	0	-30.4638777475729	-110.845818629155	0	0	0	0	
367302842.568514	0	0	-30.9134427693773	-133.273940346783	0	0	0	0	
370903556.711342	0	0	-30.7508336951436	-156.78883177363	0	0	0	0	
374504270.854171	0	0	-30.6309231858185	176.20182730667	0	0	0	0	
378104984.997	0	0	-31.1557181121202	148.572788867404	0	0	0	0	
381705699.139828	0	0	-31.7534813246762	121.305143418795	0	0	0	0	
385306413.282657	0	0	-32.8101273048195	95.4437305359893	0	0	0	0	
388907127.425485	0	0	-34.0187076672721	71.9297848445394	0	0	0	0	
392507841.568314	0	0	-35.3765742065158	51.1208345302221	0	0	0	0	
396108555.711143	0	0	-36.6916465225822	37.2088677941752	0	0	0	0	
399709269.853971	0	0	-36.7961090532062	27.3665030889711	0	0	0	0	
403309983.9968	0	0	-35.5872990250818	12.8011695585978	0	0	0	0	
406910698.139628	0	0	-34.4564385682318	-8.21647737531374	0	0	0	0	
410511412.282457	0	0	-33.2209178556429	-33.9325138309129	0	0	0	0	
414112126.425285	0	0	-32.7748009194091	-63.0670279607778	0	0	0	0	
417712840.568114	0	0	-32.7628632939984	-93.1610246055401	0	0	0	0	
421313554.710943	0	0	-33.5963437620345	-124.019034395078	0	0	0	0	
424914268.853771	0	0	-34.9116012032896	-151.780397748489	0	0	0	0	
428514982.9966	0	0	-37.290564326922	-176.653757076413	0	0	0	0	
432115697.139428	0	0	-39.9669614557436	171.596337894213	0	0	0	0	
435716411.282257	0	0	-40.502108481268	173.649298306898	0	0	0	0	
439317125.425086	0	0	-38.74174189281	163.65072133189	0	0	0	0	
442917839.567914	0	0	-36.8690108146933	145.571593610846	0	0	0	0	
446518553.710743	0	0	-35.6771583180408	119.171742648832	0	0	0	0	
450119267.853571	0	0	-35.1058033787625	87.6843512859539	0	0	0	0	
453719981.9964	0	0	-35.9218370744871	58.5066243943467	0	0	0	0	
457320696.139228	0	0	-37.420200081992	28.5331008575272	0	0	0	0	
460921410.282057	0	0	-41.053672953493	4.41633030942254	0	0	0	0	
464522124.424886	0	0	-46.915413867978	12.4053943138902	0	0	0	0	
468122838.567714	0	0	-43.3314703198842	57.2340052225386	0	0	0	0	
471723552.710543	0	0	-35.9581388656961	35.2781542487324	0	0	0	0	
475324266.853371	0	0	-33.0897306211972	-1.82854356063984	0	0	0	0	
478924980.9962	0	0	-31.7025533726164	-33.8682808056616	0	0	0	0	
482525695.139029	0	0	-31.016237257338	-67.5211208345221	0	0	0	0	
486126409.281857	0	0	-31.3574742006664	-101.083193241659	0	0	0	0	
489727123.424686	0	0	-33.0461672528349	-128.826327538125	0	0	0	0	
493327837.567514	0	0	-35.3804075330867	-146.373585404137	0	0	0	0	
496928551.710343	0	0	-36.5102494758733	-150.080984371008	0	0	0	0	
500529265.853171	0	0	-35.0150086334879	-150.024016702185	0	0	0	0	
504129979.996	0	0	-32.4599417988992	-164.711171628353	0	0	0	0	
507730694.138829	0	0	-30.1719432570029	173.738647830665	0	0	0	0	
511331408.281657	0	0	-28.496912753248	147.412582138847	0	0	0	0	
514932122.424486	0	0	-27.5364701396211	118.780355990422	0	0	0	0	
518532836.567314	0	0	-27.2393981550774	91.2001825211389	0	0	0	0	
522133550.710143	0	0	-27.4168408710391	65.3795877304206	0	0	0	0	
525734264.852972	0	0	-28.1272770077238	44.7262603257005	0	0	0	0	
529334978.9958	0	0	-28.3570372035874	30.9313505530121	0	0	0	0	
532935693.138629	0	0	-27.5806410588626	17.8009769628581	0	0	0	0	
536536407.281457	0	0	-26.0341488705676	2.49579533383819	0	0	0	0	
540137121.424286	0	0	-24.3043690124597	-18.3144195116262	0	0	0	0	
543737835.567114	0	0	-22.858812213229	-41.9255827834773	0	0	0	0	
547338549.709943	0	0	-21.6974626351824	-67.1444361707548	0	0	0	0	
550939263.852772	0	0	-20.8785812145054	-92.5686530234577	0	0	0	0	
554539977.9956	0	0	-20.1926892524715	-116.950182724902	0	0	0	0	
558140692.138429	0	0	-19.4974315170453	-140.682852836251	0	0	0	0	
561741406.281257	0	0	-18.6991566098028	-164.344154695102	0	0	0	0	
565342120.424086	0	0	-17.9308238283312	170.912058233222	0	0	0	0	
568942834.566915	0	0	-17.2955314695281	145.230496463138	0	0	0	0	
572543548.709743	0	0	-16.8915038354309	119.508153330354	0	0	0	0	
576144262.852572	0	0	-16.7021162263677	94.8809575492556	0	0	0	0	
579744976.9954	0	0	-16.6635297580038	72.2453992557848	0	0	0	0	
583345691.138229	0	0	-16.4457286119433	52.7630085289903	0	0	0	0	
586946405.281057	0	0	-15.599792974994	33.8399995623033	0	0	0	0	
590547119.423886	0	0	-14.3595232667723	12.1445278882577	0	0	0	0	
594147833.566715	0	0	-13.1018420883509	-12.1516353846938	0	0	0	0	
597748547.709543	0	0	-11.9983878244301	-39.2037189693174	0	0	0	0	
601349261.852372	0	0	-11.2360980893314	-67.9298072741003	0	0	0	0	
604949975.9952	0	0	-10.8847198309519	-96.9744004043747	0	0	0	0	
608550690.138029	0	0	-11.0146031207305	-124.713293416994	0	0	0	0	
612151404.280858	0	0	-11.4074567947798	-148.896277399817	0	0	0	0	
615752118.423686	0	0	-11.6054726267579	-168.364915112413	0	0	0	0	
619352832.566515	0	0	-10.9786609047894	174.213908807683	0	0	0	0	
622953546.709343	0	0	-9.6077775371609	153.563728627673	0	0	0	0	
626554260.852172	0	0	-8.1346352098797	128.054628643508	0	0	0	0	
630154974.995	0	0	-6.97313695638043	98.6233474304563	0	0	0	0	
633755689.137829	0	0	-6.36404312442838	67.4732773033335	0	0	0	0	
637356403.280658	0	0	-6.26071701755104	36.4019459078131	0	0	0	0	
640957117.423486	0	0	-6.64064765248768	6.84315961156045	0	0	0	0	
644557831.566315	0	0	-7.36195441798302	-19.2119702267729	0	0	0	0	
648158545.709143	0	0	-8.00700888183063	-40.4942450155014	0	0	0	0	
651759259.851972	0	0	-8.01005252991271	-58.8689084470522	0	0	0	0	
655359973.994801	0	0	-7.31460099675244	-78.1900009584049	0	0	0	0	
658960688.137629	0	0	-6.27531034655306	-101.22088207972	0	0	0	0	
662561402.280458	0	0	-5.33558169325712	-127.710917185406	0	0	0	0	
666162116.423286	0	0	-4.75299299751567	-156.556152089494	0	0	0	0	
669762830.566115	0	0	-4.5907508278213	174.512078024296	0	0	0	0	
673363544.708943	0	0	-4.76531479303922	146.481077247984	0	0	0	0	
676964258.851772	0	0	-5.13592645115634	120.582883815053	0	0	0	0	
680564972.994601	0	0	-5.44916097780197	96.7665066414362	0	0	0	0	
684165687.137429	0	0	-5.59389637710408	74.5404008212401	0	0	0	0	
687766401.280258	0	0	-5.42997199975845	52.573417060248	0	0	0	0	
691367115.423086	0	0	-5.04673566549197	29.2586220443303	0	0	0	0	
694967829.565915	0	0	-4.69260461598613	4.53022399813689	0	0	0	0	
698568543.708744	0	0	-4.45529937279	-21.0150567415605	0	0	0	0	
702169257.851572	0	0	-4.35249565752394	-46.8593118937179	0	0	0	0	
705769971.994401	0	0	-4.41023084582635	-72.3427023599935	0	0	0	0	
709370686.137229	0	0	-4.55578349177122	-96.9666461523151	0	0	0	0	
712971400.280058	0	0	-4.65422741962197	-120.481616871088	0	0	0	0	
716572114.422886	0	0	-4.59727391708292	-143.62024740509	0	0	0	0	
720172828.565715	0	0	-4.45491701228133	-167.32003995186	0	0	0	0	
723773542.708544	0	0	-4.30689548596255	168.167718665476	0	0	0	0	
727374256.851372	0	0	-4.26052553216871	143.173976580442	0	0	0	0	
730974970.994201	0	0	-4.33155914433223	118.347960066041	0	0	0	0	
734575685.137029	0	0	-4.48583550658442	94.031747149237	0	0	0	0	
738176399.279858	0	0	-4.67219965278971	70.6945344562239	0	0	0	0	
741777113.422687	0	0	-4.76274346979516	48.3317478924207	0	0	0	0	
745377827.565515	0	0	-4.67021997731933	26.185553720348	0	0	0	0	
748978541.708344	0	0	-4.38864503031015	3.29471406113655	0	0	0	0	
752579255.851172	0	0	-4.08980991488063	-21.0688047100297	0	0	0	0	
756179969.994001	0	0	-3.90481379052833	-46.7458231414197	0	0	0	0	
759780684.136829	0	0	-3.96986507816544	-72.7915825843486	0	0	0	0	
763381398.279658	0	0	-4.25946768377785	-98.2470828793171	0	0	0	0	
766982112.422487	0	0	-4.70372876250867	-122.257771797691	0	0	0	0	
770582826.565315	0	0	-5.13190260732925	-144.361904177258	0	0	0	0	
774183540.708144	0	0	-5.34624913269007	-165.001687860026	0	0	0	0	
777784254.850972	0	0	-5.2764663653824	174.6997193817	0	0	0	0	
781384968.993801	0	0	-4.94091576901477	153.373539000153	0	0	0	0	
784985683.13663	0	0	-4.51601322212756	130.318225819541	0	0	0	0	
788586397.279458	0	0	-4.16473764521783	105.619602576943	0	0	0	0	
792187111.422287	0	0	-4.00420159017385	80.0619492777419	0	0	0	0	
795787825.565115	0	0	-4.06083181191246	54.40866676465	0	0	0	0	
799388539.707944	0	0	-4.27721935950769	29.4178896202364	0	0	0	0	
802989253.850773	0	0	-4.58894243281719	5.44318194020337	0	0	0	0	
806589967.993601	0	0	-4.89821994045783	-17.4116505918398	0	0	0	0	
810190682.13643	0	0	-5.12349580512226	-39.3605522588847	0	0	0	0	
813791396.279258	0	0	-5.21320275592223	-60.9694196939088	0	0	0	0	
817392110.422087	0	0	-5.18561218306824	-82.8053961303677	0	0	0	0	
820992824.564915	0	0	-5.10471999817072	-105.055125041516	0	0	0	0	
824593538.707744	0	0	-4.99255711207653	-127.743029434608	0	0	0	0	
828194252.850573	0	0	-4.89215412133199	-150.84628677303	0	0	0	0	
831794966.993401	0	0	-4.8203412299098	-174.340531500641	0	0	0	0	
835395681.13623	0	0	-4.81077506680019	162.014117418165	0	0	0	0	
838996395.279058	0	0	-4.86997199017854	138.337768444306	0	0	0	0	
842597109.421887	0	0	-5.00600081655239	114.938651529955	0	0	0	0	
846197823.564716	0	0	-5.17664283706308	92.0544406724956	0	0	0	0	
849798537.707544	0	0	-5.35303771180745	69.718285972696	0	0	0	0	
853399251.850373	0	0	-5.47832107950141	48.114153276238	0	0	0	0	
856999965.993201	0	0	-5.49422434137819	26.9835351537853	0	0	0	0	
860600680.13603	0	0	-5.35458204023208	5.83898372741934	0	0	0	0	
864201394.278858	0	0	-5.0714132700614	-15.9723849643677	0	0	0	0	
867802108.421687	0	0	-4.73671191832101	-38.9765552105525	0	0	0	0	
871402822.564516	0	0	-4.47231439458311	-63.1407958481589	0	0	0	0	
875003536.707344	0	0	-4.34795366300507	-87.9592933300983	0	0	0	0	
878604250.850173	0	0	-4.39533601714054	-112.960128946433	0	0	0	0	
882204964.993001	0	0	-4.6276160791914	-137.55404761008	0	0	0	0	
885805679.13583	0	0	-4.999921573953	-161.088918427421	0	0	0	0	
889406393.278659	0	0	-5.40630453337355	176.964649242819	0	0	0	0	
893007107.421487	0	0	-5.68145066403482	156.563320923672	0	0	0	0	
896607821.564316	0	0	-5.71509802404873	136.908067783501	0	0	0	0	
900208535.707144	0	0	-5.47781626945915	116.854068566779	0	0	0	0	
903809249.849973	0	0	-5.06135590866125	95.5853978581422	0	0	0	0	
907409963.992801	0	0	-4.59838858042082	72.5821223138546	0	0	0	0	
911010678.13563	0	0	-4.25456904617891	48.1566462778989	0	0	0	0	
914611392.278459	0	0	-4.09545811538394	23.0044260842119	0	0	0	0	
918212106.421287	0	0	-4.14073946732496	-2.20704637672555	0	0	0	0	
921812820.564116	0	0	-4.35751491433549	-26.775743668995	0	0	0	0	
925413534.706944	0	0	-4.70816202536443	-50.2401333581651	0	0	0	0	
929014248.849773	0	0	-5.07079726385144	-72.00410480628	0	0	0	0	
932614962.992602	0	0	-5.27276344486009	-92.1992300559659	0	0	0	0	
936215677.13543	0	0	-5.1720690436623	-111.921197590298	0	0	0	0	
939816391.278259	0	0	-4.79554170440928	-132.638598447952	0	0	0	0	
943417105.421087	0	0	-4.31963329488254	-155.074156068835	0	0	0	0	
947017819.563916	0	0	-3.89139994628449	-179.19880468128	0	0	0	0	
950618533.706744	0	0	-3.62038518921721	155.54550122796	0	0	0	0	
954219247.849573	0	0	-3.57791375316188	129.740652472195	0	0	0	0	
957819961.992402	0	0	-3.77911960960847	104.336986160672	0	0	0	0	
961420676.13523	0	0	-4.14898343948375	80.1275067307232	0	0	0	0	
965021390.278059	0	0	-4.57428108801314	57.576043197709	0	0	0	0	
968622104.420887	0	0	-4.88982495554491	36.7071755733179	0	0	0	0	
972222818.563716	0	0	-4.96169161837404	16.8019544195073	0	0	0	0	
975823532.706545	0	0	-4.73598713241798	-3.36741665827082	0	0	0	0	
979424246.849373	0	0	-4.32814515614143	-24.9546205381775	0	0	0	0	
983024960.992202	0	0	-3.88952780563115	-48.1866689678723	0	0	0	0	
986625675.13503	0	0	-3.55418027263057	-72.7128094865393	0	0	0	0	
990226389.277859	0	0	-3.38074733298151	-98.0597792969277	0	0	0	0	
993827103.420687	0	0	-3.40208827725943	-123.597880008612	0	0	0	0	
997427817.563516	0	0	-3.60685268962175	-148.747391479264	0	0	0	0	
1001028531.70634	0	0	-3.95725739869927	-172.935597333747	0	0	0	0	
1004629245.84917	0	0	-4.36173007531656	164.261829904502	0	0	0	0	
1008229959.992	0	0	-4.70179711077873	142.890006857661	0	0	0	0	
1011830674.13483	0	0	-4.86012357329432	122.650926464231	0	0	0	0	
1015431388.27766	0	0	-4.73013819530024	102.652233542865	0	0	0	0	
1019032102.42049	0	0	-4.3605330876237	81.570135817039	0	0	0	0	
1022632816.56332	0	0	-3.87888855921657	58.6932236053663	0	0	0	0	
1026233530.70614	0	0	-3.46816331758532	34.0762037149595	0	0	0	0	
1029834244.84897	0	0	-3.22476550984056	8.22427628682852	0	0	0	0	
1033434958.9918	0	0	-3.23133589309638	-18.2146969703838	0	0	0	0	
1037035673.13463	0	0	-3.50375822966536	-44.3752501105128	0	0	0	0	
1040636387.27746	0	0	-4.00534392315683	-69.3851571625304	0	0	0	0	
1044237101.42029	0	0	-4.62733198492109	-92.3550933331636	0	0	0	0	
1047837815.56312	0	0	-5.14112093609564	-112.902483742676	0	0	0	0	
1051438529.70594	0	0	-5.31040959078922	-132.024294383754	0	0	0	0	
1055039243.84877	0	0	-5.07416009425473	-151.568429914934	0	0	0	0	
1058639957.9916	0	0	-4.58555565030544	-173.117943302993	0	0	0	0	
1062240672.13443	0	0	-4.09621435041455	162.943053027407	0	0	0	0	
1065841386.27726	0	0	-3.78144329181137	137.263240206102	0	0	0	0	
1069442100.42009	0	0	-3.72624482852188	110.798494207016	0	0	0	0	
1073042814.56292	0	0	-3.94251053503637	84.4455700968612	0	0	0	0	
1076643528.70574	0	0	-4.38238663028707	59.0444735911123	0	0	0	0	
1080244242.84857	0	0	-4.96647680417713	35.2797666744671	0	0	0	0	
